
T2AE8 770:819 SEGGER J-Link V6.22g Log File (0001ms, 0010ms total)
T2AE8 770:819 DLL Compiled: Jan 17 2018 16:39:42 (0001ms, 0010ms total)
T2AE8 770:819 Logging started @ 2018-09-18 01:14 (0001ms, 0010ms total)
T2AE8 770:820 JLINK_SetWarnOutHandler(...) (0000ms, 0010ms total)
T2AE8 770:820 JLINK_OpenEx(...)
Firmware: J-Link V10 compiled Aug 23 2018 09:46:11
Hardware: V10.10
S/N: 260108631
OEM: SEGGER-EDU
Feature(s): FlashBP, GDB
TELNET listener socket opened on port 19021WEBSRV 
Starting webserver (0111ms, 0121ms total)
T2AE8 770:820 WEBSRV Webserver running on local port 19080 (0111ms, 0121ms total)
T2AE8 770:820   returns O.K. (0111ms, 0121ms total)
T2AE8 770:931 JLINK_GetEmuCaps()  returns 0xB9FF7BBF (0001ms, 0122ms total)
T2AE8 770:932 JLINK_TIF_GetAvailable(...) (0000ms, 0122ms total)
T2AE8 770:932 JLINK_SetErrorOutHandler(...) (0000ms, 0122ms total)
T2AE8 770:932 JLINK_ExecCommand("ProjectFile = "C:\nordic_semi\nRF5_SDK_15.1.0_a8c0c4d_my\examples\peripheral\fatfs\pca10040\blank\arm5_no_packs\JLinkSettings.ini"", ...).   returns 0x00 (0311ms, 0433ms total)
T2AE8 771:248 JLINK_ExecCommand("Device = nRF52832_xxAA", ...). Device "NRF52832_XXAA" selected.  returns 0x00 (0007ms, 0440ms total)
T2AE8 771:255 JLINK_ExecCommand("DisableConnectionTimeout", ...).   returns 0x01 (0000ms, 0440ms total)
T2AE8 771:255 JLINK_GetHardwareVersion()  returns 0x18A88 (0000ms, 0440ms total)
T2AE8 771:255 JLINK_GetDLLVersion()  returns 62207 (0000ms, 0440ms total)
T2AE8 771:266 JLINK_GetDLLVersion()  returns 62207 (0000ms, 0440ms total)
T2AE8 771:266 JLINK_GetCompileDateTime() (0000ms, 0440ms total)
T2AE8 771:270 JLINK_GetFirmwareString(...) (0000ms, 0440ms total)
T2AE8 771:273 JLINK_GetHardwareVersion()  returns 0x18A88 (0000ms, 0440ms total)
T2AE8 771:290 JLINK_TIF_Select(JLINKARM_TIF_SWD)  returns 0x00 (0001ms, 0441ms total)
T2AE8 771:291 JLINK_SetSpeed(5000) (0000ms, 0441ms total)
T2AE8 771:291 JLINK_GetId() >0x10B TIF>Found SW-DP with ID 0x2BA01477 >0x0D TIF> >0x28 TIF> >0x0D TIF> >0x28 TIF> >0x10B TIF>Found SW-DP with ID 0x2BA01477 >0x0D TIF> >0x28 TIF> >0x0D TIF> >0x28 TIF> >0x0D TIF> >0x28 TIF> >0x0D TIF> >0x28 TIF> >0x35 TIF> >0x0D TIF> >0x28 TIF>Scanning AP map to find all available APs >0x0D TIF> >0x28 TIF> >0x35 TIF> >0x35 TIF> >0x0D TIF> >0x28 TIF> >0x35 TIF> >0x35 TIF> >0x0D TIF> >0x28 TIF> >0x35 TIF> >0x35 TIF>AP[2]: Stopped AP scan as end of AP map has been reached
AP[0]: AHB-AP (IDR: 0x24770011)AP[1]: JTAG-AP (IDR: 0x02880000)Iterating through AP map to find AHB-AP to use >0x42 TIF> >0x28 TIF> >0x0D TIF> >0x28 TIF> >0x35 TIF> >0x35 TIF> >0x42 TIF> >0x28 TIF> >0x0D TIF> >0x28 TIF> >0x0D TIF> >0x28 TIF> >0x35 TIF> >0x35 TIF>AP[0]: Core foundAP[0]: AHB-AP ROM base: 0xE00FF000 >0x0D TIF> >0x28 TIF> >0x0D TIF> >0x28 TIF> >0x0D TIF> >0x28 TIF> >0x35 TIF> >0x35 TIF>CPUID register: 0x410FC241. Implementer code: 0x41 (ARM)Found Cortex-M4 r0p1, Little endian.
 -- CPU_ReadMem(4 bytes @ 0xE000EDF0) -- CPU_WriteMem(4 bytes @ 0xE000EDF0) -- CPU_ReadMem(4 bytes @ 0xE0002000)FPUnit: 6 code (BP) slots and 2 literal slots -- CPU_ReadMem(4 bytes @ 0xE000EDFC) -- CPU_WriteMem(4 bytes @ 0xE000EDFC) -- CPU_ReadMem(4 bytes @ 0xE0001000) -- CPU_WriteMem(4 bytes @ 0xE0001000) -- CPU_ReadMem(4 bytes @ 0xE000ED88) -- CPU_WriteMem(4 bytes @ 0xE000ED88) -- CPU_ReadMem(4 bytes @ 0xE000ED88) -- CPU_WriteMem(4 bytes @ 0xE000ED88)CoreSight components:ROMTbl[0] @ E00FF000
 -- CPU_ReadMem(16 bytes @ 0xE00FF000) -- CPU_ReadMem(16 bytes @ 0xE000EFF0) -- CPU_ReadMem(16 bytes @ 0xE000EFE0)ROMTbl[0][0]: E000E000, CID: B105E00D, PID: 000BB00C SCS-M7 -- CPU_ReadMem(16 bytes @ 0xE0001FF0) -- CPU_ReadMem(16 bytes @ 0xE0001FE0)ROMTbl[0][1]: E0001000, CID: B105E00D, PID: 003BB002 DWT -- CPU_ReadMem(16 bytes @ 0xE0002FF0) -- CPU_ReadMem(16 bytes @ 0xE0002FE0)ROMTbl[0][2]: E0002000, CID: B105E00D, PID: 002BB003 FPB -- CPU_ReadMem(16 bytes @ 0xE0000FF0)
 -- CPU_ReadMem(16 bytes @ 0xE0000FE0)ROMTbl[0][3]: E0000000, CID: B105E00D, PID: 003BB001 ITM -- CPU_ReadMem(16 bytes @ 0xE00FF010) -- CPU_ReadMem(16 bytes @ 0xE0040FF0) -- CPU_ReadMem(16 bytes @ 0xE0040FE0)ROMTbl[0][4]: E0040000, CID: B105900D, PID: 000BB9A1 TPIU -- CPU_ReadMem(16 bytes @ 0xE0041FF0) -- CPU_ReadMem(16 bytes @ 0xE0041FE0)ROMTbl[0][5]: E0041000, CID: B105900D, PID: 000BB925 ETM >0x35 TIF>  returns 0x2BA01477 (0185ms, 0626ms total)
T2AE8 771:476 JLINK_GetDLLVersion()  returns 62207 (0000ms, 0626ms total)
T2AE8 771:476 JLINK_CORE_GetFound()  returns 0xE0000FF (0000ms, 0626ms total)
T2AE8 771:476 JLINK_GetDebugInfo(0x100 = JLINKARM_ROM_TABLE_ADDR_INDEX) -- Value=0xE00FF000  returns 0x00 (0000ms, 0626ms total)
T2AE8 771:478 JLINK_GetDebugInfo(0x100 = JLINKARM_ROM_TABLE_ADDR_INDEX) -- Value=0xE00FF000  returns 0x00 (0000ms, 0626ms total)
T2AE8 771:478 JLINK_GetDebugInfo(0x101 = JLINKARM_DEBUG_INFO_ETM_ADDR_INDEX) -- Value=0xE0041000  returns 0x00 (0000ms, 0626ms total)
T2AE8 771:478 JLINK_ReadMemEx(0xE0041FD0, 0x0020 Bytes, ..., Flags = 0x02000004) -- CPU_ReadMem(32 bytes @ 0xE0041FD0) - Data: 04 00 00 00 00 00 00 00 00 00 00 00 00 00 00 00 ...  returns 0x20 (0001ms, 0627ms total)
T2AE8 771:479 JLINK_GetDebugInfo(0x102 = JLINKARM_DEBUG_INFO_MTB_ADDR_INDEX) -- Value=0x00000000  returns 0x00 (0000ms, 0627ms total)
T2AE8 771:479 JLINK_GetDebugInfo(0x103 = JLINKARM_DEBUG_INFO_TPIU_ADDR_INDEX) -- Value=0xE0040000  returns 0x00 (0000ms, 0627ms total)
T2AE8 771:479 JLINK_GetDebugInfo(0x104 = JLINKARM_DEBUG_INFO_ITM_ADDR_INDEX) -- Value=0xE0000000  returns 0x00 (0000ms, 0627ms total)
T2AE8 771:479 JLINK_GetDebugInfo(0x105 = JLINKARM_DEBUG_INFO_DWT_ADDR_INDEX) -- Value=0xE0001000  returns 0x00 (0000ms, 0627ms total)
T2AE8 771:479 JLINK_GetDebugInfo(0x106 = JLINKARM_DEBUG_INFO_FPB_ADDR_INDEX) -- Value=0xE0002000  returns 0x00 (0000ms, 0627ms total)
T2AE8 771:479 JLINK_GetDebugInfo(0x107 = JLINKARM_DEBUG_INFO_NVIC_ADDR_INDEX) -- Value=0xE000E000  returns 0x00 (0000ms, 0627ms total)
T2AE8 771:479 JLINK_GetDebugInfo(0x10C = JLINKARM_DEBUG_INFO_DBG_ADDR_INDEX) -- Value=0xE000EDF0  returns 0x00 (0000ms, 0627ms total)
T2AE8 771:479 JLINK_GetDebugInfo(0x01 = Unknown) -- Value=0x00000001  returns 0x00 (0000ms, 0627ms total)
T2AE8 771:479 JLINK_ReadMemU32(0xE000ED00, 0x0001 Items, ...) -- CPU_ReadMem(4 bytes @ 0xE000ED00) - Data: 41 C2 0F 41  returns 0x01 (0000ms, 0627ms total)
T2AE8 771:479 JLINK_GetDebugInfo(0x10F = JLINKARM_DEBUG_INFO_HAS_CORTEX_M_SECURITY_EXT_INDEX) -- Value=0x00000000  returns 0x00 (0000ms, 0627ms total)
T2AE8 771:479 JLINK_SetResetType(JLINKARM_CM3_RESET_TYPE_NORMAL)  returns JLINKARM_CM3_RESET_TYPE_NORMAL (0000ms, 0627ms total)
T2AE8 771:479 JLINK_Reset() -- CPU is running -- CPU_WriteMem(4 bytes @ 0xE000EDF0) -- CPU is running -- CPU_WriteMem(4 bytes @ 0xE000EDFC)Reset: Halt core after reset via DEMCR.VC_CORERESET. >0x35 TIF>Reset: Reset device via AIRCR.SYSRESETREQ. -- CPU is running -- CPU_WriteMem(4 bytes @ 0xE000ED0C) >0x0D TIF> >0x28 TIF> -- CPU_ReadMem(4 bytes @ 0xE000EDF0) -- CPU_ReadMem(4 bytes @ 0xE000EDF0) -- CPU is running -- CPU_WriteMem(4 bytes @ 0xE000EDF0) -- CPU is running -- CPU_WriteMem(4 bytes @ 0xE000EDFC)
 -- CPU_ReadMem(4 bytes @ 0xE000EDF0) -- CPU_WriteMem(4 bytes @ 0xE0002000) -- CPU_ReadMem(4 bytes @ 0xE000EDFC) -- CPU_ReadMem(4 bytes @ 0xE0001000) (0069ms, 0696ms total)
T2AE8 771:548 JLINK_Halt()  returns 0x00 (0000ms, 0696ms total)
T2AE8 771:548 JLINK_ReadMemU32(0xE000EDF0, 0x0001 Items, ...) -- CPU_ReadMem(4 bytes @ 0xE000EDF0) - Data: 03 00 03 00  returns 0x01 (0001ms, 0697ms total)
T2AE8 771:549 JLINK_WriteU32(0xE000EDF0, 0xA05F0003) -- CPU_WriteMem(4 bytes @ 0xE000EDF0)  returns 0x00 (0000ms, 0697ms total)
T2AE8 771:549 JLINK_WriteU32(0xE000EDFC, 0x01000000) -- CPU_WriteMem(4 bytes @ 0xE000EDFC)  returns 0x00 (0000ms, 0697ms total)
T2AE8 771:563 JLINK_GetHWStatus(...)  returns 0x00 (0000ms, 0697ms total)
T2AE8 771:571 JLINK_GetNumBPUnits(Type = 0xFFFFFF00)  returns 0x06 (0001ms, 0698ms total)
T2AE8 771:572 JLINK_GetNumBPUnits(Type = 0xF0)  returns 0x2000 (0000ms, 0698ms total)
T2AE8 771:572 JLINK_GetNumWPUnits()  returns 0x04 (0000ms, 0698ms total)
T2AE8 771:579 JLINK_GetSpeed()  returns 0x1388 (0000ms, 0698ms total)
T2AE8 771:585 JLINK_ReadMemU32(0xE000E004, 0x0001 Items, ...) -- CPU_ReadMem(4 bytes @ 0xE000E004) - Data: 01 00 00 00  returns 0x01 (0001ms, 0699ms total)
T2AE8 771:586 JLINK_ReadMemU32(0xE000E004, 0x0001 Items, ...) -- CPU_ReadMem(4 bytes @ 0xE000E004) - Data: 01 00 00 00  returns 0x01 (0000ms, 0699ms total)
T2AE8 771:586 JLINK_WriteMemEx(0xE0001000, 0x001C Bytes, ..., Flags = 0x02000004) - Data: 01 00 00 00 00 00 00 00 00 00 00 00 00 00 00 00 ... -- CPU_WriteMem(28 bytes @ 0xE0001000)  returns 0x1C (0001ms, 0700ms total)
T2AE8 771:587 JLINK_Halt()  returns 0x00 (0000ms, 0700ms total)
T2AE8 771:587 JLINK_IsHalted()  returns TRUE (0000ms, 0700ms total)
T2AE8 771:596 JLINK_WriteMem(0x20000000, 0x0248 Bytes, ...) - Data: 00 BE 0A E0 0D 78 2D 06 68 40 08 24 40 00 00 D3 ... -- CPU_WriteMem(584 bytes @ 0x20000000)  returns 0x248 (0002ms, 0702ms total)
T2AE8 771:598 JLINK_WriteReg(R0, 0x00000000)  returns 0x00 (0000ms, 0702ms total)
T2AE8 771:598 JLINK_WriteReg(R1, 0x03D09000)  returns 0x00 (0000ms, 0702ms total)
T2AE8 771:598 JLINK_WriteReg(R2, 0x00000001)  returns 0x00 (0000ms, 0702ms total)
T2AE8 771:598 JLINK_WriteReg(R3, 0x00000000)  returns 0x00 (0000ms, 0702ms total)
T2AE8 771:598 JLINK_WriteReg(R4, 0x00000000)  returns 0x00 (0000ms, 0702ms total)
T2AE8 771:598 JLINK_WriteReg(R5, 0x00000000)  returns 0x00 (0001ms, 0703ms total)
T2AE8 771:599 JLINK_WriteReg(R6, 0x00000000)  returns 0x00 (0000ms, 0703ms total)
T2AE8 771:599 JLINK_WriteReg(R7, 0x00000000)  returns 0x00 (0000ms, 0703ms total)
T2AE8 771:599 JLINK_WriteReg(R8, 0x00000000)  returns 0x00 (0000ms, 0703ms total)
T2AE8 771:599 JLINK_WriteReg(R9, 0x20000244)  returns 0x00 (0000ms, 0703ms total)
T2AE8 771:599 JLINK_WriteReg(R10, 0x00000000)  returns 0x00 (0000ms, 0703ms total)
T2AE8 771:599 JLINK_WriteReg(R11, 0x00000000)  returns 0x00 (0000ms, 0703ms total)
T2AE8 771:599 JLINK_WriteReg(R12, 0x00000000)  returns 0x00 (0000ms, 0703ms total)
T2AE8 771:599 JLINK_WriteReg(R13 (SP), 0x20002000)  returns 0x00 (0000ms, 0703ms total)
T2AE8 771:599 JLINK_WriteReg(R14, 0x20000001)  returns 0x00 (0000ms, 0703ms total)
T2AE8 771:599 JLINK_WriteReg(R15 (PC), 0x20000048)  returns 0x00 (0000ms, 0703ms total)
T2AE8 771:599 JLINK_WriteReg(XPSR, 0x01000000)  returns 0x00 (0000ms, 0703ms total)
T2AE8 771:599 JLINK_WriteReg(MSP, 0x20002000)  returns 0x00 (0000ms, 0703ms total)
T2AE8 771:599 JLINK_WriteReg(PSP, 0x20002000)  returns 0x00 (0000ms, 0703ms total)
T2AE8 771:599 JLINK_WriteReg(CFBP, 0x00000000)  returns 0x00 (0000ms, 0703ms total)
T2AE8 771:599 JLINK_SetBPEx(Addr = 0x20000000, Type = 0xFFFFFFF2) -- CPU_ReadMem(2 bytes @ 0x20000000)  returns 0x00000001 (0000ms, 0703ms total)
T2AE8 771:599 JLINK_Go() -- CPU_WriteMem(2 bytes @ 0x20000000) -- CPU_ReadMem(4 bytes @ 0xE0001000) -- CPU_WriteMem(4 bytes @ 0xE0002008) -- CPU_WriteMem(4 bytes @ 0xE000200C) -- CPU_WriteMem(4 bytes @ 0xE0002010) -- CPU_WriteMem(4 bytes @ 0xE0002014) -- CPU_WriteMem(4 bytes @ 0xE0002018) -- CPU_WriteMem(4 bytes @ 0xE000201C) -- CPU_WriteMem(4 bytes @ 0xE0001004) (0003ms, 0706ms total)
T2AE8 771:602 JLINK_IsHalted() -- CPU_ReadMem(2 bytes @ 0x20000000)  returns TRUE (0002ms, 0708ms total)
T2AE8 771:604 JLINK_ReadReg(R15 (PC))  returns 0x20000000 (0000ms, 0706ms total)
T2AE8 771:604 JLINK_ClrBPEx(BPHandle = 0x00000001)  returns 0x00 (0000ms, 0706ms total)
T2AE8 771:604 JLINK_ReadReg(R0)  returns 0x00000000 (0000ms, 0706ms total)
T2AE8 771:605 JLINK_WriteReg(R0, 0x00000000)  returns 0x00 (0000ms, 0706ms total)
T2AE8 771:605 JLINK_WriteReg(R1, 0x00001000)  returns 0x00 (0000ms, 0706ms total)
T2AE8 771:605 JLINK_WriteReg(R2, 0x000000FF)  returns 0x00 (0000ms, 0706ms total)
T2AE8 771:605 JLINK_WriteReg(R3, 0x00000000)  returns 0x00 (0000ms, 0706ms total)
T2AE8 771:605 JLINK_WriteReg(R4, 0x00000000)  returns 0x00 (0000ms, 0706ms total)
T2AE8 771:605 JLINK_WriteReg(R5, 0x00000000)  returns 0x00 (0000ms, 0706ms total)
T2AE8 771:605 JLINK_WriteReg(R6, 0x00000000)  returns 0x00 (0000ms, 0706ms total)
T2AE8 771:605 JLINK_WriteReg(R7, 0x00000000)  returns 0x00 (0000ms, 0706ms total)
T2AE8 771:605 JLINK_WriteReg(R8, 0x00000000)  returns 0x00 (0001ms, 0707ms total)
T2AE8 771:606 JLINK_WriteReg(R9, 0x20000244)  returns 0x00 (0000ms, 0707ms total)
T2AE8 771:606 JLINK_WriteReg(R10, 0x00000000)  returns 0x00 (0000ms, 0707ms total)
T2AE8 771:606 JLINK_WriteReg(R11, 0x00000000)  returns 0x00 (0000ms, 0707ms total)
T2AE8 771:606 JLINK_WriteReg(R12, 0x00000000)  returns 0x00 (0000ms, 0707ms total)
T2AE8 771:606 JLINK_WriteReg(R13 (SP), 0x20002000)  returns 0x00 (0000ms, 0707ms total)
T2AE8 771:606 JLINK_WriteReg(R14, 0x20000001)  returns 0x00 (0000ms, 0707ms total)
T2AE8 771:606 JLINK_WriteReg(R15 (PC), 0x2000012E)  returns 0x00 (0000ms, 0707ms total)
T2AE8 771:606 JLINK_WriteReg(XPSR, 0x01000000)  returns 0x00 (0000ms, 0707ms total)
T2AE8 771:606 JLINK_WriteReg(MSP, 0x20002000)  returns 0x00 (0000ms, 0707ms total)
T2AE8 771:606 JLINK_WriteReg(PSP, 0x20002000)  returns 0x00 (0000ms, 0707ms total)
T2AE8 771:606 JLINK_WriteReg(CFBP, 0x00000000)  returns 0x00 (0000ms, 0707ms total)
T2AE8 771:606 JLINK_SetBPEx(Addr = 0x20000000, Type = 0xFFFFFFF2)  returns 0x00000002 (0000ms, 0707ms total)
T2AE8 771:606 JLINK_Go() -- CPU_ReadMem(4 bytes @ 0xE0001000) (0001ms, 0708ms total)
T2AE8 771:607 JLINK_IsHalted()  returns FALSE (0000ms, 0708ms total)
T2AE8 771:677 JLINK_IsHalted() -- CPU_ReadMem(2 bytes @ 0x20000000)  returns TRUE (0002ms, 0710ms total)
T2AE8 771:679 JLINK_ReadReg(R15 (PC))  returns 0x20000000 (0000ms, 0708ms total)
T2AE8 771:679 JLINK_ClrBPEx(BPHandle = 0x00000002)  returns 0x00 (0000ms, 0708ms total)
T2AE8 771:679 JLINK_ReadReg(R0)  returns 0x00000000 (0000ms, 0708ms total)
T2AE8 771:680 JLINK_WriteReg(R0, 0x00001000)  returns 0x00 (0000ms, 0708ms total)
T2AE8 771:680 JLINK_WriteReg(R1, 0x00001000)  returns 0x00 (0000ms, 0708ms total)
T2AE8 771:680 JLINK_WriteReg(R2, 0x000000FF)  returns 0x00 (0000ms, 0708ms total)
T2AE8 771:680 JLINK_WriteReg(R3, 0x00000000)  returns 0x00 (0000ms, 0708ms total)
T2AE8 771:680 JLINK_WriteReg(R4, 0x00000000)  returns 0x00 (0000ms, 0708ms total)
T2AE8 771:680 JLINK_WriteReg(R5, 0x00000000)  returns 0x00 (0000ms, 0708ms total)
T2AE8 771:680 JLINK_WriteReg(R6, 0x00000000)  returns 0x00 (0000ms, 0708ms total)
T2AE8 771:680 JLINK_WriteReg(R7, 0x00000000)  returns 0x00 (0000ms, 0708ms total)
T2AE8 771:680 JLINK_WriteReg(R8, 0x00000000)  returns 0x00 (0000ms, 0708ms total)
T2AE8 771:680 JLINK_WriteReg(R9, 0x20000244)  returns 0x00 (0000ms, 0708ms total)
T2AE8 771:680 JLINK_WriteReg(R10, 0x00000000)  returns 0x00 (0000ms, 0708ms total)
T2AE8 771:680 JLINK_WriteReg(R11, 0x00000000)  returns 0x00 (0000ms, 0708ms total)
T2AE8 771:680 JLINK_WriteReg(R12, 0x00000000)  returns 0x00 (0000ms, 0708ms total)
T2AE8 771:680 JLINK_WriteReg(R13 (SP), 0x20002000)  returns 0x00 (0000ms, 0708ms total)
T2AE8 771:680 JLINK_WriteReg(R14, 0x20000001)  returns 0x00 (0000ms, 0708ms total)
T2AE8 771:680 JLINK_WriteReg(R15 (PC), 0x2000012E)  returns 0x00 (0000ms, 0708ms total)
T2AE8 771:680 JLINK_WriteReg(XPSR, 0x01000000)  returns 0x00 (0000ms, 0708ms total)
T2AE8 771:680 JLINK_WriteReg(MSP, 0x20002000)  returns 0x00 (0001ms, 0709ms total)
T2AE8 771:681 JLINK_WriteReg(PSP, 0x20002000)  returns 0x00 (0000ms, 0709ms total)
T2AE8 771:681 JLINK_WriteReg(CFBP, 0x00000000)  returns 0x00 (0000ms, 0709ms total)
T2AE8 771:681 JLINK_SetBPEx(Addr = 0x20000000, Type = 0xFFFFFFF2)  returns 0x00000003 (0000ms, 0709ms total)
T2AE8 771:681 JLINK_Go() -- CPU_ReadMem(4 bytes @ 0xE0001000) (0001ms, 0710ms total)
T2AE8 771:682 JLINK_IsHalted()  returns FALSE (0000ms, 0710ms total)
T2AE8 771:690 JLINK_IsHalted() -- CPU_ReadMem(2 bytes @ 0x20000000)  returns TRUE (0002ms, 0712ms total)
T2AE8 771:692 JLINK_ReadReg(R15 (PC))  returns 0x20000000 (0000ms, 0710ms total)
T2AE8 771:692 JLINK_ClrBPEx(BPHandle = 0x00000003)  returns 0x00 (0000ms, 0710ms total)
T2AE8 771:692 JLINK_ReadReg(R0)  returns 0x00000000 (0000ms, 0710ms total)
T2AE8 771:692 JLINK_WriteReg(R0, 0x00002000)  returns 0x00 (0001ms, 0711ms total)
T2AE8 771:693 JLINK_WriteReg(R1, 0x00001000)  returns 0x00 (0000ms, 0711ms total)
T2AE8 771:693 JLINK_WriteReg(R2, 0x000000FF)  returns 0x00 (0000ms, 0711ms total)
T2AE8 771:693 JLINK_WriteReg(R3, 0x00000000)  returns 0x00 (0000ms, 0711ms total)
T2AE8 771:693 JLINK_WriteReg(R4, 0x00000000)  returns 0x00 (0000ms, 0711ms total)
T2AE8 771:693 JLINK_WriteReg(R5, 0x00000000)  returns 0x00 (0000ms, 0711ms total)
T2AE8 771:693 JLINK_WriteReg(R6, 0x00000000)  returns 0x00 (0000ms, 0711ms total)
T2AE8 771:693 JLINK_WriteReg(R7, 0x00000000)  returns 0x00 (0000ms, 0711ms total)
T2AE8 771:693 JLINK_WriteReg(R8, 0x00000000)  returns 0x00 (0000ms, 0711ms total)
T2AE8 771:693 JLINK_WriteReg(R9, 0x20000244)  returns 0x00 (0000ms, 0711ms total)
T2AE8 771:693 JLINK_WriteReg(R10, 0x00000000)  returns 0x00 (0000ms, 0711ms total)
T2AE8 771:693 JLINK_WriteReg(R11, 0x00000000)  returns 0x00 (0000ms, 0711ms total)
T2AE8 771:693 JLINK_WriteReg(R12, 0x00000000)  returns 0x00 (0000ms, 0711ms total)
T2AE8 771:693 JLINK_WriteReg(R13 (SP), 0x20002000)  returns 0x00 (0000ms, 0711ms total)
T2AE8 771:693 JLINK_WriteReg(R14, 0x20000001)  returns 0x00 (0000ms, 0711ms total)
T2AE8 771:693 JLINK_WriteReg(R15 (PC), 0x2000012E)  returns 0x00 (0000ms, 0711ms total)
T2AE8 771:693 JLINK_WriteReg(XPSR, 0x01000000)  returns 0x00 (0000ms, 0711ms total)
T2AE8 771:693 JLINK_WriteReg(MSP, 0x20002000)  returns 0x00 (0000ms, 0711ms total)
T2AE8 771:693 JLINK_WriteReg(PSP, 0x20002000)  returns 0x00 (0000ms, 0711ms total)
T2AE8 771:693 JLINK_WriteReg(CFBP, 0x00000000)  returns 0x00 (0000ms, 0711ms total)
T2AE8 771:693 JLINK_SetBPEx(Addr = 0x20000000, Type = 0xFFFFFFF2)  returns 0x00000004 (0001ms, 0712ms total)
T2AE8 771:694 JLINK_Go() -- CPU_ReadMem(4 bytes @ 0xE0001000) (0001ms, 0713ms total)
T2AE8 771:695 JLINK_IsHalted()  returns FALSE (0000ms, 0713ms total)
T2AE8 771:698 JLINK_IsHalted() -- CPU_ReadMem(2 bytes @ 0x20000000)  returns TRUE (0002ms, 0715ms total)
T2AE8 771:700 JLINK_ReadReg(R15 (PC))  returns 0x20000000 (0000ms, 0713ms total)
T2AE8 771:700 JLINK_ClrBPEx(BPHandle = 0x00000004)  returns 0x00 (0000ms, 0713ms total)
T2AE8 771:700 JLINK_ReadReg(R0)  returns 0x00000000 (0000ms, 0713ms total)
T2AE8 771:701 JLINK_WriteReg(R0, 0x00003000)  returns 0x00 (0000ms, 0713ms total)
T2AE8 771:701 JLINK_WriteReg(R1, 0x00001000)  returns 0x00 (0000ms, 0713ms total)
T2AE8 771:701 JLINK_WriteReg(R2, 0x000000FF)  returns 0x00 (0000ms, 0713ms total)
T2AE8 771:701 JLINK_WriteReg(R3, 0x00000000)  returns 0x00 (0000ms, 0713ms total)
T2AE8 771:701 JLINK_WriteReg(R4, 0x00000000)  returns 0x00 (0000ms, 0713ms total)
T2AE8 771:701 JLINK_WriteReg(R5, 0x00000000)  returns 0x00 (0000ms, 0713ms total)
T2AE8 771:701 JLINK_WriteReg(R6, 0x00000000)  returns 0x00 (0000ms, 0713ms total)
T2AE8 771:701 JLINK_WriteReg(R7, 0x00000000)  returns 0x00 (0000ms, 0713ms total)
T2AE8 771:701 JLINK_WriteReg(R8, 0x00000000)  returns 0x00 (0001ms, 0714ms total)
T2AE8 771:702 JLINK_WriteReg(R9, 0x20000244)  returns 0x00 (0000ms, 0714ms total)
T2AE8 771:702 JLINK_WriteReg(R10, 0x00000000)  returns 0x00 (0000ms, 0714ms total)
T2AE8 771:702 JLINK_WriteReg(R11, 0x00000000)  returns 0x00 (0000ms, 0714ms total)
T2AE8 771:702 JLINK_WriteReg(R12, 0x00000000)  returns 0x00 (0000ms, 0714ms total)
T2AE8 771:702 JLINK_WriteReg(R13 (SP), 0x20002000)  returns 0x00 (0000ms, 0714ms total)
T2AE8 771:702 JLINK_WriteReg(R14, 0x20000001)  returns 0x00 (0000ms, 0714ms total)
T2AE8 771:702 JLINK_WriteReg(R15 (PC), 0x2000012E)  returns 0x00 (0000ms, 0714ms total)
T2AE8 771:702 JLINK_WriteReg(XPSR, 0x01000000)  returns 0x00 (0000ms, 0714ms total)
T2AE8 771:702 JLINK_WriteReg(MSP, 0x20002000)  returns 0x00 (0000ms, 0714ms total)
T2AE8 771:702 JLINK_WriteReg(PSP, 0x20002000)  returns 0x00 (0000ms, 0714ms total)
T2AE8 771:702 JLINK_WriteReg(CFBP, 0x00000000)  returns 0x00 (0000ms, 0714ms total)
T2AE8 771:702 JLINK_SetBPEx(Addr = 0x20000000, Type = 0xFFFFFFF2)  returns 0x00000005 (0000ms, 0714ms total)
T2AE8 771:702 JLINK_Go() -- CPU_ReadMem(4 bytes @ 0xE0001000) (0001ms, 0715ms total)
T2AE8 771:703 JLINK_IsHalted()  returns FALSE (0000ms, 0715ms total)
T2AE8 771:706 JLINK_IsHalted() -- CPU_ReadMem(2 bytes @ 0x20000000)  returns TRUE (0002ms, 0717ms total)
T2AE8 771:708 JLINK_ReadReg(R15 (PC))  returns 0x20000000 (0000ms, 0715ms total)
T2AE8 771:708 JLINK_ClrBPEx(BPHandle = 0x00000005)  returns 0x00 (0000ms, 0715ms total)
T2AE8 771:708 JLINK_ReadReg(R0)  returns 0x00000000 (0000ms, 0715ms total)
T2AE8 771:709 JLINK_WriteReg(R0, 0x00004000)  returns 0x00 (0000ms, 0715ms total)
T2AE8 771:709 JLINK_WriteReg(R1, 0x00001000)  returns 0x00 (0000ms, 0715ms total)
T2AE8 771:709 JLINK_WriteReg(R2, 0x000000FF)  returns 0x00 (0000ms, 0715ms total)
T2AE8 771:709 JLINK_WriteReg(R3, 0x00000000)  returns 0x00 (0000ms, 0715ms total)
T2AE8 771:709 JLINK_WriteReg(R4, 0x00000000)  returns 0x00 (0000ms, 0715ms total)
T2AE8 771:709 JLINK_WriteReg(R5, 0x00000000)  returns 0x00 (0000ms, 0715ms total)
T2AE8 771:709 JLINK_WriteReg(R6, 0x00000000)  returns 0x00 (0000ms, 0715ms total)
T2AE8 771:709 JLINK_WriteReg(R7, 0x00000000)  returns 0x00 (0000ms, 0715ms total)
T2AE8 771:709 JLINK_WriteReg(R8, 0x00000000)  returns 0x00 (0000ms, 0715ms total)
T2AE8 771:709 JLINK_WriteReg(R9, 0x20000244)  returns 0x00 (0000ms, 0715ms total)
T2AE8 771:709 JLINK_WriteReg(R10, 0x00000000)  returns 0x00 (0000ms, 0715ms total)
T2AE8 771:709 JLINK_WriteReg(R11, 0x00000000)  returns 0x00 (0000ms, 0715ms total)
T2AE8 771:709 JLINK_WriteReg(R12, 0x00000000)  returns 0x00 (0000ms, 0715ms total)
T2AE8 771:709 JLINK_WriteReg(R13 (SP), 0x20002000)  returns 0x00 (0000ms, 0715ms total)
T2AE8 771:709 JLINK_WriteReg(R14, 0x20000001)  returns 0x00 (0000ms, 0715ms total)
T2AE8 771:709 JLINK_WriteReg(R15 (PC), 0x2000012E)  returns 0x00 (0000ms, 0715ms total)
T2AE8 771:709 JLINK_WriteReg(XPSR, 0x01000000)  returns 0x00 (0000ms, 0715ms total)
T2AE8 771:709 JLINK_WriteReg(MSP, 0x20002000)  returns 0x00 (0000ms, 0715ms total)
T2AE8 771:709 JLINK_WriteReg(PSP, 0x20002000)  returns 0x00 (0000ms, 0715ms total)
T2AE8 771:709 JLINK_WriteReg(CFBP, 0x00000000)  returns 0x00 (0000ms, 0715ms total)
T2AE8 771:709 JLINK_SetBPEx(Addr = 0x20000000, Type = 0xFFFFFFF2)  returns 0x00000006 (0000ms, 0715ms total)
T2AE8 771:709 JLINK_Go() -- CPU_ReadMem(4 bytes @ 0xE0001000) (0001ms, 0716ms total)
T2AE8 771:710 JLINK_IsHalted()  returns FALSE (0001ms, 0717ms total)
T2AE8 771:713 JLINK_IsHalted() -- CPU_ReadMem(2 bytes @ 0x20000000)  returns TRUE (0002ms, 0718ms total)
T2AE8 771:715 JLINK_ReadReg(R15 (PC))  returns 0x20000000 (0000ms, 0716ms total)
T2AE8 771:715 JLINK_ClrBPEx(BPHandle = 0x00000006)  returns 0x00 (0000ms, 0716ms total)
T2AE8 771:715 JLINK_ReadReg(R0)  returns 0x00000000 (0000ms, 0716ms total)
T2AE8 771:715 JLINK_WriteReg(R0, 0x00000001)  returns 0x00 (0000ms, 0716ms total)
T2AE8 771:716 JLINK_WriteReg(R1, 0x00001000)  returns 0x00 (0000ms, 0717ms total)
T2AE8 771:716 JLINK_WriteReg(R2, 0x000000FF)  returns 0x00 (0000ms, 0717ms total)
T2AE8 771:716 JLINK_WriteReg(R3, 0x00000000)  returns 0x00 (0000ms, 0717ms total)
T2AE8 771:716 JLINK_WriteReg(R4, 0x00000000)  returns 0x00 (0000ms, 0717ms total)
T2AE8 771:716 JLINK_WriteReg(R5, 0x00000000)  returns 0x00 (0000ms, 0717ms total)
T2AE8 771:716 JLINK_WriteReg(R6, 0x00000000)  returns 0x00 (0000ms, 0717ms total)
T2AE8 771:716 JLINK_WriteReg(R7, 0x00000000)  returns 0x00 (0000ms, 0717ms total)
T2AE8 771:716 JLINK_WriteReg(R8, 0x00000000)  returns 0x00 (0000ms, 0717ms total)
T2AE8 771:716 JLINK_WriteReg(R9, 0x20000244)  returns 0x00 (0000ms, 0717ms total)
T2AE8 771:716 JLINK_WriteReg(R10, 0x00000000)  returns 0x00 (0000ms, 0717ms total)
T2AE8 771:716 JLINK_WriteReg(R11, 0x00000000)  returns 0x00 (0000ms, 0717ms total)
T2AE8 771:716 JLINK_WriteReg(R12, 0x00000000)  returns 0x00 (0000ms, 0717ms total)
T2AE8 771:716 JLINK_WriteReg(R13 (SP), 0x20002000)  returns 0x00 (0000ms, 0717ms total)
T2AE8 771:716 JLINK_WriteReg(R14, 0x20000001)  returns 0x00 (0000ms, 0717ms total)
T2AE8 771:716 JLINK_WriteReg(R15 (PC), 0x200000A2)  returns 0x00 (0000ms, 0717ms total)
T2AE8 771:716 JLINK_WriteReg(XPSR, 0x01000000)  returns 0x00 (0000ms, 0717ms total)
T2AE8 771:716 JLINK_WriteReg(MSP, 0x20002000)  returns 0x00 (0000ms, 0717ms total)
T2AE8 771:716 JLINK_WriteReg(PSP, 0x20002000)  returns 0x00 (0000ms, 0717ms total)
T2AE8 771:716 JLINK_WriteReg(CFBP, 0x00000000)  returns 0x00 (0000ms, 0717ms total)
T2AE8 771:716 JLINK_SetBPEx(Addr = 0x20000000, Type = 0xFFFFFFF2)  returns 0x00000007 (0000ms, 0717ms total)
T2AE8 771:716 JLINK_Go() -- CPU_ReadMem(4 bytes @ 0xE0001000) (0001ms, 0718ms total)
T2AE8 771:717 JLINK_IsHalted() -- CPU_ReadMem(2 bytes @ 0x20000000)  returns TRUE (0002ms, 0720ms total)
T2AE8 771:719 JLINK_ReadReg(R15 (PC))  returns 0x20000000 (0000ms, 0718ms total)
T2AE8 771:719 JLINK_ClrBPEx(BPHandle = 0x00000007)  returns 0x00 (0000ms, 0718ms total)
T2AE8 771:719 JLINK_ReadReg(R0)  returns 0x00000000 (0000ms, 0718ms total)
T2AE8 771:779 JLINK_WriteMem(0x20000000, 0x0248 Bytes, ...) - Data: 00 BE 0A E0 0D 78 2D 06 68 40 08 24 40 00 00 D3 ... -- CPU_WriteMem(584 bytes @ 0x20000000)  returns 0x248 (0002ms, 0720ms total)
T2AE8 771:781 JLINK_WriteReg(R0, 0x00000000)  returns 0x00 (0000ms, 0720ms total)
T2AE8 771:781 JLINK_WriteReg(R1, 0x03D09000)  returns 0x00 (0000ms, 0720ms total)
T2AE8 771:781 JLINK_WriteReg(R2, 0x00000002)  returns 0x00 (0000ms, 0720ms total)
T2AE8 771:781 JLINK_WriteReg(R3, 0x00000000)  returns 0x00 (0000ms, 0720ms total)
T2AE8 771:781 JLINK_WriteReg(R4, 0x00000000)  returns 0x00 (0000ms, 0720ms total)
T2AE8 771:781 JLINK_WriteReg(R5, 0x00000000)  returns 0x00 (0000ms, 0720ms total)
T2AE8 771:781 JLINK_WriteReg(R6, 0x00000000)  returns 0x00 (0000ms, 0720ms total)
T2AE8 771:781 JLINK_WriteReg(R7, 0x00000000)  returns 0x00 (0000ms, 0720ms total)
T2AE8 771:781 JLINK_WriteReg(R8, 0x00000000)  returns 0x00 (0000ms, 0720ms total)
T2AE8 771:781 JLINK_WriteReg(R9, 0x20000244)  returns 0x00 (0000ms, 0720ms total)
T2AE8 771:781 JLINK_WriteReg(R10, 0x00000000)  returns 0x00 (0000ms, 0720ms total)
T2AE8 771:781 JLINK_WriteReg(R11, 0x00000000)  returns 0x00 (0000ms, 0720ms total)
T2AE8 771:781 JLINK_WriteReg(R12, 0x00000000)  returns 0x00 (0000ms, 0720ms total)
T2AE8 771:781 JLINK_WriteReg(R13 (SP), 0x20002000)  returns 0x00 (0000ms, 0720ms total)
T2AE8 771:781 JLINK_WriteReg(R14, 0x20000001)  returns 0x00 (0000ms, 0720ms total)
T2AE8 771:781 JLINK_WriteReg(R15 (PC), 0x20000048)  returns 0x00 (0001ms, 0721ms total)
T2AE8 771:782 JLINK_WriteReg(XPSR, 0x01000000)  returns 0x00 (0000ms, 0721ms total)
T2AE8 771:782 JLINK_WriteReg(MSP, 0x20002000)  returns 0x00 (0000ms, 0721ms total)
T2AE8 771:782 JLINK_WriteReg(PSP, 0x20002000)  returns 0x00 (0000ms, 0721ms total)
T2AE8 771:782 JLINK_WriteReg(CFBP, 0x00000000)  returns 0x00 (0000ms, 0721ms total)
T2AE8 771:782 JLINK_SetBPEx(Addr = 0x20000000, Type = 0xFFFFFFF2) -- CPU_ReadMem(2 bytes @ 0x20000000)  returns 0x00000008 (0000ms, 0721ms total)
T2AE8 771:782 JLINK_Go() -- CPU_WriteMem(2 bytes @ 0x20000000) -- CPU_ReadMem(4 bytes @ 0xE0001000) (0002ms, 0723ms total)
T2AE8 771:784 JLINK_IsHalted() -- CPU_ReadMem(2 bytes @ 0x20000000)  returns TRUE (0002ms, 0725ms total)
T2AE8 771:786 JLINK_ReadReg(R15 (PC))  returns 0x20000000 (0000ms, 0723ms total)
T2AE8 771:786 JLINK_ClrBPEx(BPHandle = 0x00000008)  returns 0x00 (0000ms, 0723ms total)
T2AE8 771:786 JLINK_ReadReg(R0)  returns 0x00000000 (0000ms, 0723ms total)
T2AE8 771:786 JLINK_WriteMem(0x20000248, 0x01B8 Bytes, ...) - Data: 28 2E 00 20 F9 02 00 00 01 03 00 00 03 03 00 00 ... -- CPU_WriteMem(440 bytes @ 0x20000248)  returns 0x1B8 (0002ms, 0725ms total)
T2AE8 771:788 JLINK_WriteMem(0x20000400, 0x0400 Bytes, ...) - Data: 00 00 00 00 00 00 00 00 00 00 00 00 00 00 00 00 ... -- CPU_WriteMem(1024 bytes @ 0x20000400)  returns 0x400 (0003ms, 0728ms total)
T2AE8 771:791 JLINK_WriteMem(0x20000800, 0x0400 Bytes, ...) - Data: 3F 1D 3E 60 66 4E 08 36 36 68 3F 1D 3E 60 64 4E ... -- CPU_WriteMem(1024 bytes @ 0x20000800)  returns 0x400 (0004ms, 0732ms total)
T2AE8 771:795 JLINK_WriteMem(0x20000C00, 0x0400 Bytes, ...) - Data: 70 B5 19 4B 14 46 93 F8 22 20 2A B1 93 F8 22 20 ... -- CPU_WriteMem(1024 bytes @ 0x20000C00)  returns 0x400 (0003ms, 0735ms total)
T2AE8 771:798 JLINK_WriteMem(0x20001000, 0x0248 Bytes, ...) - Data: 00 20 FF F7 D7 FE 1B 4C 20 68 38 60 D4 E9 00 01 ... -- CPU_WriteMem(584 bytes @ 0x20001000)  returns 0x248 (0002ms, 0737ms total)
T2AE8 771:800 JLINK_WriteReg(R0, 0x00000000)  returns 0x00 (0000ms, 0737ms total)
T2AE8 771:800 JLINK_WriteReg(R1, 0x00001000)  returns 0x00 (0000ms, 0737ms total)
T2AE8 771:800 JLINK_WriteReg(R2, 0x20000248)  returns 0x00 (0000ms, 0737ms total)
T2AE8 771:800 JLINK_WriteReg(R3, 0x00000000)  returns 0x00 (0000ms, 0737ms total)
T2AE8 771:800 JLINK_WriteReg(R4, 0x00000000)  returns 0x00 (0000ms, 0737ms total)
T2AE8 771:800 JLINK_WriteReg(R5, 0x00000000)  returns 0x00 (0000ms, 0737ms total)
T2AE8 771:800 JLINK_WriteReg(R6, 0x00000000)  returns 0x00 (0000ms, 0737ms total)
T2AE8 771:800 JLINK_WriteReg(R7, 0x00000000)  returns 0x00 (0000ms, 0737ms total)
T2AE8 771:800 JLINK_WriteReg(R8, 0x00000000)  returns 0x00 (0000ms, 0737ms total)
T2AE8 771:800 JLINK_WriteReg(R9, 0x20000244)  returns 0x00 (0000ms, 0737ms total)
T2AE8 771:800 JLINK_WriteReg(R10, 0x00000000)  returns 0x00 (0000ms, 0737ms total)
T2AE8 771:800 JLINK_WriteReg(R11, 0x00000000)  returns 0x00 (0000ms, 0737ms total)
T2AE8 771:800 JLINK_WriteReg(R12, 0x00000000)  returns 0x00 (0000ms, 0737ms total)
T2AE8 771:800 JLINK_WriteReg(R13 (SP), 0x20002000)  returns 0x00 (0000ms, 0737ms total)
T2AE8 771:800 JLINK_WriteReg(R14, 0x20000001)  returns 0x00 (0000ms, 0737ms total)
T2AE8 771:801 JLINK_WriteReg(R15 (PC), 0x2000016A)  returns 0x00 (0000ms, 0738ms total)
T2AE8 771:801 JLINK_WriteReg(XPSR, 0x01000000)  returns 0x00 (0000ms, 0738ms total)
T2AE8 771:801 JLINK_WriteReg(MSP, 0x20002000)  returns 0x00 (0000ms, 0738ms total)
T2AE8 771:801 JLINK_WriteReg(PSP, 0x20002000)  returns 0x00 (0000ms, 0738ms total)
T2AE8 771:801 JLINK_WriteReg(CFBP, 0x00000000)  returns 0x00 (0000ms, 0738ms total)
T2AE8 771:801 JLINK_SetBPEx(Addr = 0x20000000, Type = 0xFFFFFFF2)  returns 0x00000009 (0000ms, 0738ms total)
T2AE8 771:801 JLINK_Go() -- CPU_ReadMem(4 bytes @ 0xE0001000) (0001ms, 0739ms total)
T2AE8 771:802 JLINK_IsHalted()  returns FALSE (0001ms, 0740ms total)
T2AE8 771:816 JLINK_IsHalted()  returns FALSE (0000ms, 0739ms total)
T2AE8 771:818 JLINK_IsHalted()  returns FALSE (0000ms, 0739ms total)
T2AE8 771:820 JLINK_IsHalted()  returns FALSE (0000ms, 0739ms total)
T2AE8 771:827 JLINK_IsHalted()  returns FALSE (0000ms, 0739ms total)
T2AE8 771:831 JLINK_IsHalted()  returns FALSE (0000ms, 0739ms total)
T2AE8 771:833 JLINK_IsHalted()  returns FALSE (0000ms, 0739ms total)
T2AE8 771:835 JLINK_IsHalted()  returns FALSE (0000ms, 0739ms total)
T2AE8 771:839 JLINK_IsHalted()  returns FALSE (0000ms, 0739ms total)
T2AE8 771:841 JLINK_IsHalted()  returns FALSE (0000ms, 0739ms total)
T2AE8 771:843 JLINK_IsHalted()  returns FALSE (0000ms, 0739ms total)
T2AE8 771:846 JLINK_IsHalted()  returns FALSE (0000ms, 0739ms total)
T2AE8 771:848 JLINK_IsHalted()  returns FALSE (0000ms, 0739ms total)
T2AE8 771:850 JLINK_IsHalted()  returns FALSE (0000ms, 0739ms total)
T2AE8 771:854 JLINK_IsHalted()  returns FALSE (0000ms, 0739ms total)
T2AE8 771:856 JLINK_IsHalted()  returns FALSE (0000ms, 0739ms total)
T2AE8 771:858 JLINK_IsHalted()  returns FALSE (0000ms, 0739ms total)
T2AE8 771:862 JLINK_IsHalted()  returns FALSE (0000ms, 0739ms total)
T2AE8 771:864 JLINK_IsHalted()  returns FALSE (0000ms, 0739ms total)
T2AE8 771:866 JLINK_IsHalted()  returns FALSE (0000ms, 0739ms total)
T2AE8 771:876 JLINK_IsHalted() -- CPU_ReadMem(2 bytes @ 0x20000000)  returns TRUE (0002ms, 0741ms total)
T2AE8 771:878 JLINK_ReadReg(R15 (PC))  returns 0x20000000 (0000ms, 0739ms total)
T2AE8 771:878 JLINK_ClrBPEx(BPHandle = 0x00000009)  returns 0x00 (0000ms, 0739ms total)
T2AE8 771:878 JLINK_ReadReg(R0)  returns 0x00000000 (0000ms, 0739ms total)
T2AE8 771:879 JLINK_WriteMem(0x20000248, 0x01B8 Bytes, ...) - Data: 40 0C BC F1 3F 0F 04 D3 A7 F1 80 0C BC F1 7D 0F ... -- CPU_WriteMem(440 bytes @ 0x20000248)  returns 0x1B8 (0002ms, 0741ms total)
T2AE8 771:881 JLINK_WriteMem(0x20000400, 0x0400 Bytes, ...) - Data: 6E 61 FF F7 8B FE A8 61 C7 F3 08 00 20 44 30 30 ... -- CPU_WriteMem(1024 bytes @ 0x20000400)  returns 0x400 (0003ms, 0744ms total)
T2AE8 771:885 JLINK_WriteMem(0x20000800, 0x0400 Bytes, ...) - Data: 02 A8 00 F0 93 FB E6 E7 18 00 00 20 2D E9 F7 43 ... -- CPU_WriteMem(1024 bytes @ 0x20000800)  returns 0x400 (0003ms, 0748ms total)
T2AE8 771:888 JLINK_WriteMem(0x20000C00, 0x0400 Bytes, ...) - Data: 02 98 01 23 59 46 40 78 01 9A FF F7 27 FD 10 B1 ... -- CPU_WriteMem(1024 bytes @ 0x20000C00)  returns 0x400 (0003ms, 0751ms total)
T2AE8 771:891 JLINK_WriteMem(0x20001000, 0x0248 Bytes, ...) - Data: 04 F1 46 00 00 F0 2B FA 18 B9 04 F1 54 00 00 F0 ... -- CPU_WriteMem(584 bytes @ 0x20001000)  returns 0x248 (0003ms, 0754ms total)
T2AE8 771:894 JLINK_WriteReg(R0, 0x00001000)  returns 0x00 (0000ms, 0754ms total)
T2AE8 771:894 JLINK_WriteReg(R1, 0x00001000)  returns 0x00 (0000ms, 0754ms total)
T2AE8 771:894 JLINK_WriteReg(R2, 0x20000248)  returns 0x00 (0000ms, 0754ms total)
T2AE8 771:894 JLINK_WriteReg(R3, 0x00000000)  returns 0x00 (0000ms, 0754ms total)
T2AE8 771:894 JLINK_WriteReg(R4, 0x00000000)  returns 0x00 (0000ms, 0754ms total)
T2AE8 771:894 JLINK_WriteReg(R5, 0x00000000)  returns 0x00 (0000ms, 0754ms total)
T2AE8 771:894 JLINK_WriteReg(R6, 0x00000000)  returns 0x00 (0000ms, 0754ms total)
T2AE8 771:894 JLINK_WriteReg(R7, 0x00000000)  returns 0x00 (0000ms, 0754ms total)
T2AE8 771:894 JLINK_WriteReg(R8, 0x00000000)  returns 0x00 (0000ms, 0754ms total)
T2AE8 771:894 JLINK_WriteReg(R9, 0x20000244)  returns 0x00 (0000ms, 0754ms total)
T2AE8 771:894 JLINK_WriteReg(R10, 0x00000000)  returns 0x00 (0000ms, 0754ms total)
T2AE8 771:894 JLINK_WriteReg(R11, 0x00000000)  returns 0x00 (0000ms, 0754ms total)
T2AE8 771:894 JLINK_WriteReg(R12, 0x00000000)  returns 0x00 (0000ms, 0754ms total)
T2AE8 771:894 JLINK_WriteReg(R13 (SP), 0x20002000)  returns 0x00 (0000ms, 0754ms total)
T2AE8 771:894 JLINK_WriteReg(R14, 0x20000001)  returns 0x00 (0000ms, 0754ms total)
T2AE8 771:894 JLINK_WriteReg(R15 (PC), 0x2000016A)  returns 0x00 (0000ms, 0754ms total)
T2AE8 771:894 JLINK_WriteReg(XPSR, 0x01000000)  returns 0x00 (0000ms, 0754ms total)
T2AE8 771:894 JLINK_WriteReg(MSP, 0x20002000)  returns 0x00 (0000ms, 0754ms total)
T2AE8 771:894 JLINK_WriteReg(PSP, 0x20002000)  returns 0x00 (0001ms, 0755ms total)
T2AE8 771:895 JLINK_WriteReg(CFBP, 0x00000000)  returns 0x00 (0000ms, 0755ms total)
T2AE8 771:895 JLINK_SetBPEx(Addr = 0x20000000, Type = 0xFFFFFFF2)  returns 0x0000000A (0000ms, 0755ms total)
T2AE8 771:895 JLINK_Go() -- CPU_ReadMem(4 bytes @ 0xE0001000) (0001ms, 0756ms total)
T2AE8 771:896 JLINK_IsHalted()  returns FALSE (0000ms, 0756ms total)
T2AE8 771:904 JLINK_IsHalted()  returns FALSE (0000ms, 0756ms total)
T2AE8 771:908 JLINK_IsHalted()  returns FALSE (0000ms, 0756ms total)
T2AE8 771:910 JLINK_IsHalted()  returns FALSE (0000ms, 0756ms total)
T2AE8 771:914 JLINK_IsHalted()  returns FALSE (0000ms, 0756ms total)
T2AE8 771:916 JLINK_IsHalted()  returns FALSE (0000ms, 0756ms total)
T2AE8 771:918 JLINK_IsHalted()  returns FALSE (0000ms, 0756ms total)
T2AE8 771:922 JLINK_IsHalted()  returns FALSE (0000ms, 0756ms total)
T2AE8 771:924 JLINK_IsHalted()  returns FALSE (0000ms, 0756ms total)
T2AE8 771:926 JLINK_IsHalted()  returns FALSE (0000ms, 0756ms total)
T2AE8 771:928 JLINK_IsHalted()  returns FALSE (0000ms, 0756ms total)
T2AE8 771:931 JLINK_IsHalted()  returns FALSE (0000ms, 0756ms total)
T2AE8 771:933 JLINK_IsHalted()  returns FALSE (0000ms, 0756ms total)
T2AE8 771:935 JLINK_IsHalted()  returns FALSE (0000ms, 0756ms total)
T2AE8 771:937 JLINK_IsHalted()  returns FALSE (0000ms, 0756ms total)
T2AE8 771:939 JLINK_IsHalted()  returns FALSE (0000ms, 0756ms total)
T2AE8 771:941 JLINK_IsHalted()  returns FALSE (0000ms, 0756ms total)
T2AE8 771:943 JLINK_IsHalted()  returns FALSE (0000ms, 0756ms total)
T2AE8 771:945 JLINK_IsHalted()  returns FALSE (0000ms, 0756ms total)
T2AE8 771:947 JLINK_IsHalted()  returns FALSE (0000ms, 0756ms total)
T2AE8 771:949 JLINK_IsHalted()  returns FALSE (0000ms, 0756ms total)
T2AE8 771:951 JLINK_IsHalted()  returns FALSE (0000ms, 0756ms total)
T2AE8 771:953 JLINK_IsHalted()  returns FALSE (0000ms, 0756ms total)
T2AE8 771:955 JLINK_IsHalted()  returns FALSE (0000ms, 0756ms total)
T2AE8 771:957 JLINK_IsHalted()  returns FALSE (0000ms, 0756ms total)
T2AE8 771:959 JLINK_IsHalted()  returns FALSE (0000ms, 0756ms total)
T2AE8 771:961 JLINK_IsHalted()  returns FALSE (0000ms, 0756ms total)
T2AE8 771:965 JLINK_IsHalted() -- CPU_ReadMem(2 bytes @ 0x20000000)  returns TRUE (0002ms, 0758ms total)
T2AE8 771:967 JLINK_ReadReg(R15 (PC))  returns 0x20000000 (0000ms, 0756ms total)
T2AE8 771:967 JLINK_ClrBPEx(BPHandle = 0x0000000A)  returns 0x00 (0000ms, 0756ms total)
T2AE8 771:967 JLINK_ReadReg(R0)  returns 0x00000000 (0000ms, 0756ms total)
T2AE8 771:968 JLINK_WriteMem(0x20000248, 0x01B8 Bytes, ...) - Data: C7 F3 08 00 20 44 90 F8 30 10 48 EA 01 20 E9 07 ... -- CPU_WriteMem(440 bytes @ 0x20000248)  returns 0x1B8 (0002ms, 0758ms total)
T2AE8 771:970 JLINK_WriteMem(0x20000400, 0x0400 Bytes, ...) - Data: 02 28 0C D1 05 E0 C2 F3 83 10 0B 68 80 1C 18 44 ... -- CPU_WriteMem(1024 bytes @ 0x20000400)  returns 0x400 (0003ms, 0761ms total)
T2AE8 771:973 JLINK_WriteMem(0x20000800, 0x0400 Bytes, ...) - Data: 39 B1 25 29 0E D0 40 46 FE F7 36 FC 20 78 00 28 ... -- CPU_WriteMem(1024 bytes @ 0x20000800)  returns 0x400 (0004ms, 0765ms total)
T2AE8 771:977 JLINK_WriteMem(0x20000C00, 0x0400 Bytes, ...) - Data: 60 68 02 90 A5 68 4F F0 00 08 28 40 04 EB 80 00 ... -- CPU_WriteMem(1024 bytes @ 0x20000C00)  returns 0x400 (0003ms, 0768ms total)
T2AE8 771:980 JLINK_WriteMem(0x20001000, 0x0248 Bytes, ...) - Data: 00 23 49 46 28 46 FF F7 DA FB 0A E0 04 F1 08 00 ... -- CPU_WriteMem(584 bytes @ 0x20001000)  returns 0x248 (0002ms, 0770ms total)
T2AE8 771:982 JLINK_WriteReg(R0, 0x00002000)  returns 0x00 (0000ms, 0770ms total)
T2AE8 771:982 JLINK_WriteReg(R1, 0x00001000)  returns 0x00 (0000ms, 0770ms total)
T2AE8 771:982 JLINK_WriteReg(R2, 0x20000248)  returns 0x00 (0000ms, 0770ms total)
T2AE8 771:982 JLINK_WriteReg(R3, 0x00000000)  returns 0x00 (0000ms, 0770ms total)
T2AE8 771:982 JLINK_WriteReg(R4, 0x00000000)  returns 0x00 (0000ms, 0770ms total)
T2AE8 771:982 JLINK_WriteReg(R5, 0x00000000)  returns 0x00 (0001ms, 0771ms total)
T2AE8 771:983 JLINK_WriteReg(R6, 0x00000000)  returns 0x00 (0000ms, 0771ms total)
T2AE8 771:983 JLINK_WriteReg(R7, 0x00000000)  returns 0x00 (0000ms, 0771ms total)
T2AE8 771:983 JLINK_WriteReg(R8, 0x00000000)  returns 0x00 (0000ms, 0771ms total)
T2AE8 771:983 JLINK_WriteReg(R9, 0x20000244)  returns 0x00 (0000ms, 0771ms total)
T2AE8 771:983 JLINK_WriteReg(R10, 0x00000000)  returns 0x00 (0000ms, 0771ms total)
T2AE8 771:983 JLINK_WriteReg(R11, 0x00000000)  returns 0x00 (0000ms, 0771ms total)
T2AE8 771:983 JLINK_WriteReg(R12, 0x00000000)  returns 0x00 (0000ms, 0771ms total)
T2AE8 771:983 JLINK_WriteReg(R13 (SP), 0x20002000)  returns 0x00 (0000ms, 0771ms total)
T2AE8 771:983 JLINK_WriteReg(R14, 0x20000001)  returns 0x00 (0000ms, 0771ms total)
T2AE8 771:983 JLINK_WriteReg(R15 (PC), 0x2000016A)  returns 0x00 (0000ms, 0771ms total)
T2AE8 771:983 JLINK_WriteReg(XPSR, 0x01000000)  returns 0x00 (0000ms, 0771ms total)
T2AE8 771:983 JLINK_WriteReg(MSP, 0x20002000)  returns 0x00 (0000ms, 0771ms total)
T2AE8 771:983 JLINK_WriteReg(PSP, 0x20002000)  returns 0x00 (0000ms, 0771ms total)
T2AE8 771:983 JLINK_WriteReg(CFBP, 0x00000000)  returns 0x00 (0000ms, 0771ms total)
T2AE8 771:983 JLINK_SetBPEx(Addr = 0x20000000, Type = 0xFFFFFFF2)  returns 0x0000000B (0000ms, 0771ms total)
T2AE8 771:983 JLINK_Go() -- CPU_ReadMem(4 bytes @ 0xE0001000) (0001ms, 0772ms total)
T2AE8 771:984 JLINK_IsHalted()  returns FALSE (0001ms, 0773ms total)
T2AE8 771:989 JLINK_IsHalted()  returns FALSE (0000ms, 0772ms total)
T2AE8 771:991 JLINK_IsHalted()  returns FALSE (0000ms, 0772ms total)
T2AE8 771:993 JLINK_IsHalted()  returns FALSE (0000ms, 0772ms total)
T2AE8 771:996 JLINK_IsHalted()  returns FALSE (0000ms, 0772ms total)
T2AE8 771:998 JLINK_IsHalted()  returns FALSE (0000ms, 0772ms total)
T2AE8 772:000 JLINK_IsHalted()  returns FALSE (0000ms, 0772ms total)
T2AE8 772:002 JLINK_IsHalted()  returns FALSE (0000ms, 0772ms total)
T2AE8 772:004 JLINK_IsHalted()  returns FALSE (0000ms, 0772ms total)
T2AE8 772:006 JLINK_IsHalted()  returns FALSE (0000ms, 0772ms total)
T2AE8 772:008 JLINK_IsHalted()  returns FALSE (0000ms, 0772ms total)
T2AE8 772:010 JLINK_IsHalted()  returns FALSE (0000ms, 0772ms total)
T2AE8 772:012 JLINK_IsHalted()  returns FALSE (0000ms, 0772ms total)
T2AE8 772:014 JLINK_IsHalted()  returns FALSE (0000ms, 0772ms total)
T2AE8 772:016 JLINK_IsHalted()  returns FALSE (0000ms, 0772ms total)
T2AE8 772:018 JLINK_IsHalted()  returns FALSE (0000ms, 0772ms total)
T2AE8 772:020 JLINK_IsHalted()  returns FALSE (0000ms, 0772ms total)
T2AE8 772:022 JLINK_IsHalted()  returns FALSE (0000ms, 0772ms total)
T2AE8 772:026 JLINK_IsHalted()  returns FALSE (0000ms, 0772ms total)
T2AE8 772:028 JLINK_IsHalted()  returns FALSE (0000ms, 0772ms total)
T2AE8 772:030 JLINK_IsHalted()  returns FALSE (0000ms, 0772ms total)
T2AE8 772:032 JLINK_IsHalted()  returns FALSE (0000ms, 0772ms total)
T2AE8 772:034 JLINK_IsHalted()  returns FALSE (0000ms, 0772ms total)
T2AE8 772:036 JLINK_IsHalted()  returns FALSE (0000ms, 0772ms total)
T2AE8 772:038 JLINK_IsHalted()  returns FALSE (0000ms, 0772ms total)
T2AE8 772:040 JLINK_IsHalted()  returns FALSE (0000ms, 0772ms total)
T2AE8 772:042 JLINK_IsHalted()  returns FALSE (0000ms, 0772ms total)
T2AE8 772:044 JLINK_IsHalted()  returns FALSE (0000ms, 0772ms total)
T2AE8 772:046 JLINK_IsHalted()  returns FALSE (0000ms, 0772ms total)
T2AE8 772:048 JLINK_IsHalted()  returns FALSE (0000ms, 0772ms total)
T2AE8 772:050 JLINK_IsHalted()  returns FALSE (0000ms, 0772ms total)
T2AE8 772:052 JLINK_IsHalted()  returns FALSE (0000ms, 0772ms total)
T2AE8 772:055 JLINK_IsHalted() -- CPU_ReadMem(2 bytes @ 0x20000000)  returns TRUE (0002ms, 0774ms total)
T2AE8 772:057 JLINK_ReadReg(R15 (PC))  returns 0x20000000 (0000ms, 0772ms total)
T2AE8 772:057 JLINK_ClrBPEx(BPHandle = 0x0000000B)  returns 0x00 (0000ms, 0772ms total)
T2AE8 772:057 JLINK_ReadReg(R0)  returns 0x00000000 (0000ms, 0772ms total)
T2AE8 772:057 JLINK_WriteMem(0x20000248, 0x01B8 Bytes, ...) - Data: B0 77 21 78 C7 F8 08 15 C7 F8 0C 95 C7 F8 10 55 ... -- CPU_WriteMem(440 bytes @ 0x20000248)  returns 0x1B8 (0002ms, 0774ms total)
T2AE8 772:059 JLINK_WriteMem(0x20000400, 0x0400 Bytes, ...) - Data: 20 46 FF F7 DC F9 00 E0 1A B1 06 A1 20 46 FF F7 ... -- CPU_WriteMem(1024 bytes @ 0x20000400)  returns 0x400 (0003ms, 0777ms total)
T2AE8 772:062 JLINK_WriteMem(0x20000800, 0x0400 Bytes, ...) - Data: 14 D1 4D E0 40 F2 61 2C A3 F2 61 28 63 45 77 D0 ... -- CPU_WriteMem(1024 bytes @ 0x20000800)  returns 0x400 (0004ms, 0781ms total)
T2AE8 772:066 JLINK_WriteMem(0x20000C00, 0x0400 Bytes, ...) - Data: 7F 4C 16 46 23 46 07 46 B4 F8 1C 80 03 F1 38 02 ... -- CPU_WriteMem(1024 bytes @ 0x20000C00)  returns 0x400 (0003ms, 0784ms total)
T2AE8 772:069 JLINK_WriteMem(0x20001000, 0x0248 Bytes, ...) - Data: 09 00 88 F8 22 90 A8 F8 14 60 A8 F8 16 60 88 F8 ... -- CPU_WriteMem(584 bytes @ 0x20001000)  returns 0x248 (0002ms, 0786ms total)
T2AE8 772:071 JLINK_WriteReg(R0, 0x00003000)  returns 0x00 (0000ms, 0786ms total)
T2AE8 772:071 JLINK_WriteReg(R1, 0x00001000)  returns 0x00 (0000ms, 0786ms total)
T2AE8 772:071 JLINK_WriteReg(R2, 0x20000248)  returns 0x00 (0000ms, 0786ms total)
T2AE8 772:071 JLINK_WriteReg(R3, 0x00000000)  returns 0x00 (0000ms, 0786ms total)
T2AE8 772:071 JLINK_WriteReg(R4, 0x00000000)  returns 0x00 (0000ms, 0786ms total)
T2AE8 772:071 JLINK_WriteReg(R5, 0x00000000)  returns 0x00 (0001ms, 0787ms total)
T2AE8 772:072 JLINK_WriteReg(R6, 0x00000000)  returns 0x00 (0000ms, 0787ms total)
T2AE8 772:072 JLINK_WriteReg(R7, 0x00000000)  returns 0x00 (0000ms, 0787ms total)
T2AE8 772:072 JLINK_WriteReg(R8, 0x00000000)  returns 0x00 (0000ms, 0787ms total)
T2AE8 772:072 JLINK_WriteReg(R9, 0x20000244)  returns 0x00 (0000ms, 0787ms total)
T2AE8 772:072 JLINK_WriteReg(R10, 0x00000000)  returns 0x00 (0000ms, 0787ms total)
T2AE8 772:072 JLINK_WriteReg(R11, 0x00000000)  returns 0x00 (0000ms, 0787ms total)
T2AE8 772:072 JLINK_WriteReg(R12, 0x00000000)  returns 0x00 (0000ms, 0787ms total)
T2AE8 772:072 JLINK_WriteReg(R13 (SP), 0x20002000)  returns 0x00 (0000ms, 0787ms total)
T2AE8 772:072 JLINK_WriteReg(R14, 0x20000001)  returns 0x00 (0000ms, 0787ms total)
T2AE8 772:072 JLINK_WriteReg(R15 (PC), 0x2000016A)  returns 0x00 (0000ms, 0787ms total)
T2AE8 772:072 JLINK_WriteReg(XPSR, 0x01000000)  returns 0x00 (0000ms, 0787ms total)
T2AE8 772:072 JLINK_WriteReg(MSP, 0x20002000)  returns 0x00 (0000ms, 0787ms total)
T2AE8 772:072 JLINK_WriteReg(PSP, 0x20002000)  returns 0x00 (0000ms, 0787ms total)
T2AE8 772:072 JLINK_WriteReg(CFBP, 0x00000000)  returns 0x00 (0000ms, 0787ms total)
T2AE8 772:072 JLINK_SetBPEx(Addr = 0x20000000, Type = 0xFFFFFFF2)  returns 0x0000000C (0000ms, 0787ms total)
T2AE8 772:072 JLINK_Go() -- CPU_ReadMem(4 bytes @ 0xE0001000) (0001ms, 0788ms total)
T2AE8 772:073 JLINK_IsHalted()  returns FALSE (0001ms, 0789ms total)
T2AE8 772:076 JLINK_IsHalted()  returns FALSE (0000ms, 0788ms total)
T2AE8 772:078 JLINK_IsHalted()  returns FALSE (0000ms, 0788ms total)
T2AE8 772:080 JLINK_IsHalted()  returns FALSE (0000ms, 0788ms total)
T2AE8 772:082 JLINK_IsHalted()  returns FALSE (0000ms, 0788ms total)
T2AE8 772:084 JLINK_IsHalted()  returns FALSE (0000ms, 0788ms total)
T2AE8 772:086 JLINK_IsHalted()  returns FALSE (0000ms, 0788ms total)
T2AE8 772:088 JLINK_IsHalted()  returns FALSE (0000ms, 0788ms total)
T2AE8 772:093 JLINK_IsHalted()  returns FALSE (0000ms, 0788ms total)
T2AE8 772:095 JLINK_IsHalted()  returns FALSE (0000ms, 0788ms total)
T2AE8 772:097 JLINK_IsHalted()  returns FALSE (0000ms, 0788ms total)
T2AE8 772:099 JLINK_IsHalted()  returns FALSE (0000ms, 0788ms total)
T2AE8 772:101 JLINK_IsHalted()  returns FALSE (0000ms, 0788ms total)
T2AE8 772:103 JLINK_IsHalted()  returns FALSE (0000ms, 0788ms total)
T2AE8 772:105 JLINK_IsHalted()  returns FALSE (0000ms, 0788ms total)
T2AE8 772:107 JLINK_IsHalted()  returns FALSE (0000ms, 0788ms total)
T2AE8 772:109 JLINK_IsHalted()  returns FALSE (0000ms, 0788ms total)
T2AE8 772:111 JLINK_IsHalted()  returns FALSE (0000ms, 0788ms total)
T2AE8 772:113 JLINK_IsHalted()  returns FALSE (0000ms, 0788ms total)
T2AE8 772:115 JLINK_IsHalted()  returns FALSE (0000ms, 0788ms total)
T2AE8 772:117 JLINK_IsHalted()  returns FALSE (0000ms, 0788ms total)
T2AE8 772:120 JLINK_IsHalted()  returns FALSE (0000ms, 0788ms total)
T2AE8 772:122 JLINK_IsHalted()  returns FALSE (0000ms, 0788ms total)
T2AE8 772:124 JLINK_IsHalted()  returns FALSE (0000ms, 0788ms total)
T2AE8 772:126 JLINK_IsHalted()  returns FALSE (0000ms, 0788ms total)
T2AE8 772:128 JLINK_IsHalted()  returns FALSE (0000ms, 0788ms total)
T2AE8 772:130 JLINK_IsHalted()  returns FALSE (0000ms, 0788ms total)
T2AE8 772:132 JLINK_IsHalted()  returns FALSE (0000ms, 0788ms total)
T2AE8 772:134 JLINK_IsHalted()  returns FALSE (0000ms, 0788ms total)
T2AE8 772:136 JLINK_IsHalted()  returns FALSE (0000ms, 0788ms total)
T2AE8 772:138 JLINK_IsHalted()  returns FALSE (0000ms, 0788ms total)
T2AE8 772:140 JLINK_IsHalted()  returns FALSE (0000ms, 0788ms total)
T2AE8 772:142 JLINK_IsHalted()  returns FALSE (0000ms, 0788ms total)
T2AE8 772:144 JLINK_IsHalted() -- CPU_ReadMem(2 bytes @ 0x20000000)  returns TRUE (0002ms, 0790ms total)
T2AE8 772:146 JLINK_ReadReg(R15 (PC))  returns 0x20000000 (0000ms, 0788ms total)
T2AE8 772:146 JLINK_ClrBPEx(BPHandle = 0x0000000C)  returns 0x00 (0000ms, 0788ms total)
T2AE8 772:146 JLINK_ReadReg(R0)  returns 0x00000000 (0000ms, 0788ms total)
T2AE8 772:147 JLINK_WriteMem(0x20000248, 0x01B8 Bytes, ...) - Data: 2E 20 FF F7 9D FF 13 49 30 46 FF F7 91 FF 12 49 ... -- CPU_WriteMem(440 bytes @ 0x20000248)  returns 0x1B8 (0001ms, 0789ms total)
T2AE8 772:148 JLINK_WriteMem(0x20000400, 0x0400 Bytes, ...) - Data: 00 07 FF 00 00 00 00 40 00 00 00 00 11 04 00 00 ... -- CPU_WriteMem(1024 bytes @ 0x20000400)  returns 0x400 (0004ms, 0793ms total)
T2AE8 772:152 JLINK_WriteMem(0x20000800, 0x0400 Bytes, ...) - Data: FF FF FF FF FF FF FF FF FF FF FF FF FF FF FF FF ... -- CPU_WriteMem(1024 bytes @ 0x20000800)  returns 0x400 (0003ms, 0796ms total)
T2AE8 772:155 JLINK_WriteMem(0x20000C00, 0x0400 Bytes, ...) - Data: FF FF FF FF FF FF FF FF FF FF FF FF FF FF FF FF ... -- CPU_WriteMem(1024 bytes @ 0x20000C00)  returns 0x400 (0003ms, 0799ms total)
T2AE8 772:159 JLINK_WriteMem(0x20001000, 0x0248 Bytes, ...) - Data: FF FF FF FF FF FF FF FF FF FF FF FF FF FF FF FF ... -- CPU_WriteMem(584 bytes @ 0x20001000)  returns 0x248 (0002ms, 0802ms total)
T2AE8 772:161 JLINK_WriteReg(R0, 0x00004000)  returns 0x00 (0000ms, 0802ms total)
T2AE8 772:161 JLINK_WriteReg(R1, 0x000004B4)  returns 0x00 (0000ms, 0802ms total)
T2AE8 772:161 JLINK_WriteReg(R2, 0x20000248)  returns 0x00 (0000ms, 0802ms total)
T2AE8 772:161 JLINK_WriteReg(R3, 0x00000000)  returns 0x00 (0000ms, 0802ms total)
T2AE8 772:161 JLINK_WriteReg(R4, 0x00000000)  returns 0x00 (0000ms, 0802ms total)
T2AE8 772:161 JLINK_WriteReg(R5, 0x00000000)  returns 0x00 (0000ms, 0802ms total)
T2AE8 772:161 JLINK_WriteReg(R6, 0x00000000)  returns 0x00 (0000ms, 0802ms total)
T2AE8 772:161 JLINK_WriteReg(R7, 0x00000000)  returns 0x00 (0000ms, 0802ms total)
T2AE8 772:161 JLINK_WriteReg(R8, 0x00000000)  returns 0x00 (0000ms, 0802ms total)
T2AE8 772:161 JLINK_WriteReg(R9, 0x20000244)  returns 0x00 (0000ms, 0802ms total)
T2AE8 772:161 JLINK_WriteReg(R10, 0x00000000)  returns 0x00 (0000ms, 0802ms total)
